!Agilent Technologies,E5071C,MY46107869,A.09.30
!Date: Fri Nov 28 14:32:04 2014
!Data & Calibration Information:
!Freq	S11:SOLT2(ON)	S21:SOLT2(ON)	S12:SOLT2(ON)	S22:SOLT2(ON)
# Hz S dB R 50
1800000000	-5.227647e-001	1.152306e+002	-9.035216e+001	-6.079877e+001	-8.400262e+001	-6.733673e+001	-3.922886e-003	-2.656858e+001
1802000000	-5.652756e-001	8.827004e+001	-9.399997e+001	-4.008918e+001	-8.699438e+001	-6.910691e+001	-6.545790e-003	-2.830072e+001
1804000000	-5.924637e-001	6.111488e+001	-8.487064e+001	-7.853224e+001	-8.583390e+001	-1.000440e+002	-7.036555e-003	-3.007839e+001
1806000000	-6.004021e-001	3.405204e+001	-8.216461e+001	-1.176061e+002	-1.030675e+002	-9.241488e+001	-8.196378e-003	-3.195499e+001
1808000000	-5.898970e-001	7.214368e+000	-8.900596e+001	-5.867354e+001	-8.756798e+001	-1.038295e+002	-1.032603e-002	-3.389372e+001
1810000000	-5.676609e-001	-1.952118e+001	-8.778305e+001	-6.194460e+001	-8.550705e+001	-1.427004e+002	-1.122338e-002	-3.590843e+001
1812000000	-5.411432e-001	-4.632373e+001	-8.848530e+001	-1.639383e+002	-9.020835e+001	-1.320161e+002	-1.115838e-002	-3.800977e+001
1814000000	-5.193739e-001	-7.366703e+001	-9.490548e+001	-1.092146e+002	-1.033908e+002	-3.623263e+001	-1.024712e-002	-4.023672e+001
1816000000	-5.192777e-001	-1.020532e+002	-8.978655e+001	7.144409e+001	-9.239292e+001	-1.415716e+002	-1.109034e-002	-4.255716e+001
1818000000	-5.449613e-001	-1.321005e+002	-9.838174e+001	1.199177e+002	-9.223015e+001	1.012656e+002	-1.373139e-002	-4.499396e+001
1820000000	-6.064433e-001	-1.644397e+002	-1.166271e+002	1.465964e+002	-9.439475e+001	5.341322e+001	-1.682424e-002	-4.757061e+001
1822000000	-7.074827e-001	1.604051e+002	-9.923492e+001	8.374132e+001	-9.843457e+001	1.380496e+002	-1.978003e-002	-5.028596e+001
1824000000	-8.312974e-001	1.221027e+002	-8.974559e+001	1.382172e+002	-9.415011e+001	1.639294e+002	-2.429319e-002	-5.317024e+001
1826000000	-9.513274e-001	8.082377e+001	-1.005731e+002	1.064516e+002	-9.021855e+001	6.977885e+001	-2.522835e-002	-5.623180e+001
1828000000	-1.019643e+000	3.721782e+001	-9.809205e+001	1.406894e+002	-9.455117e+001	6.245363e+001	-3.074067e-002	-5.948889e+001
1830000000	-1.020341e+000	-7.788040e+000	-1.153594e+002	1.030436e+002	-8.855347e+001	-2.427735e+001	-3.347159e-002	-6.297209e+001
1832000000	-9.726135e-001	-5.368819e+001	-9.618112e+001	-1.235954e+002	-9.750568e+001	1.526924e+002	-4.023437e-002	-6.673992e+001
1834000000	-9.517010e-001	-1.008648e+002	-9.010219e+001	-1.409783e+002	-9.378181e+001	-5.256987e+001	-4.552054e-002	-7.081106e+001
1836000000	-1.065520e+000	-1.517539e+002	-7.726989e+001	-4.329562e+001	-8.175245e+001	-2.889856e+001	-5.224358e-002	-7.520939e+001
1838000000	-1.549690e+000	1.464370e+002	-6.618852e+001	-6.539553e+001	-6.586153e+001	-6.704415e+001	-6.234931e-002	-8.000650e+001
1840000000	-2.647806e+000	5.410668e+001	-5.893114e+001	-1.108129e+002	-5.887067e+001	-1.105030e+002	-7.415289e-002	-8.530467e+001
1842000000	-2.306172e+000	-6.696385e+001	-6.116605e+001	-1.570513e+002	-6.116522e+001	-1.570023e+002	-9.015921e-002	-9.121327e+001
1844000000	-1.206911e+000	-1.494267e+002	-5.740317e+001	-5.181273e+001	-5.737429e+001	-5.300126e+001	-1.056228e-001	-9.784866e+001
1846000000	-8.112313e-001	1.594712e+002	-4.540481e+001	-7.136915e+001	-4.530665e+001	-7.176631e+001	-1.308540e-001	-1.053987e+002
1848000000	-6.950334e-001	1.215885e+002	-3.788104e+001	-9.312231e+001	-3.783923e+001	-9.376480e+001	-1.630955e-001	-1.142285e+002
1850000000	-6.764139e-001	8.978762e+001	-3.153376e+001	-1.135888e+002	-3.150976e+001	-1.144329e+002	-2.128824e-001	-1.247460e+002
1852000000	-6.979885e-001	6.072492e+001	-2.553548e+001	-1.345622e+002	-2.555522e+001	-1.351990e+002	-2.988153e-001	-1.377411e+002
1854000000	-7.853556e-001	3.220812e+001	-1.955991e+001	-1.573646e+002	-1.961294e+001	-1.579421e+002	-4.594476e-001	-1.546476e+002
1856000000	-1.054993e+000	1.798956e+000	-1.346161e+001	1.751124e+002	-1.354490e+001	1.747752e+002	-8.728372e-001	-1.783560e+002
1858000000	-2.055071e+000	-3.360813e+001	-7.488381e+000	1.382938e+002	-7.578147e+000	1.383018e+002	-2.174128e+000	1.453691e+002
1860000000	-5.391678e+000	-7.170607e+001	-3.048882e+000	8.961647e+001	-3.080978e+000	8.989519e+001	-6.358588e+000	8.906581e+001
1862000000	-1.114097e+001	-9.043298e+001	-1.327603e+000	4.113423e+001	-1.320243e+000	4.128421e+001	-1.430509e+001	3.102038e+000
1864000000	-1.435608e+001	-9.298407e+001	-9.220353e-001	2.474534e+000	-9.116632e-001	2.475730e+000	-1.619566e+001	-8.900311e+001
1866000000	-1.668463e+001	-1.106834e+002	-7.365183e-001	-2.925147e+001	-7.314068e-001	-2.930117e+001	-1.722210e+001	-1.330315e+002
1868000000	-2.121928e+001	-1.422031e+002	-5.963651e-001	-5.714762e+001	-5.962242e-001	-5.720397e+001	-2.138226e+001	-1.520118e+002
1870000000	-2.866111e+001	1.500691e+002	-5.096858e-001	-8.240921e+001	-5.134409e-001	-8.243438e+001	-2.714438e+001	-1.262695e+002
1872000000	-2.566991e+001	5.501624e+001	-4.729893e-001	-1.054826e+002	-4.742465e-001	-1.054914e+002	-2.358637e+001	-9.197288e+001
1874000000	-2.175313e+001	1.703446e+001	-4.564594e-001	-1.267294e+002	-4.515558e-001	-1.267471e+002	-2.037487e+001	-9.779984e+001
1876000000	-2.057681e+001	-7.689097e+000	-4.340400e-001	-1.465305e+002	-4.298065e-001	-1.465641e+002	-1.925030e+001	-1.126539e+002
1878000000	-2.087054e+001	-2.763516e+001	-4.032882e-001	-1.651781e+002	-3.990089e-001	-1.652201e+002	-1.960484e+001	-1.306221e+002
1880000000	-2.269887e+001	-4.301966e+001	-3.662095e-001	1.770905e+002	-3.646853e-001	1.770364e+002	-2.117546e+001	-1.506412e+002
1882000000	-2.606966e+001	-5.274864e+001	-3.317135e-001	1.601094e+002	-3.334438e-001	1.600713e+002	-2.408560e+001	-1.757827e+002
1884000000	-3.171050e+001	-4.078876e+001	-3.070733e-001	1.438151e+002	-3.083778e-001	1.437905e+002	-2.850145e+001	1.451734e+002
1886000000	-3.173182e+001	1.639819e+001	-2.917038e-001	1.281234e+002	-2.935157e-001	1.281251e+002	-3.004247e+001	7.338755e+001
1888000000	-2.621945e+001	2.854667e+001	-2.879921e-001	1.130369e+002	-2.854656e-001	1.130520e+002	-2.610493e+001	2.290046e+001
1890000000	-2.294748e+001	2.320013e+001	-2.887634e-001	9.850090e+001	-2.837758e-001	9.852742e+001	-2.291877e+001	-5.105713e+000
1892000000	-2.106111e+001	1.286463e+001	-2.917368e-001	8.448087e+001	-2.835583e-001	8.448989e+001	-2.097361e+001	-2.591487e+001
1894000000	-1.990329e+001	2.604343e+000	-2.934596e-001	7.090992e+001	-2.830396e-001	7.090087e+001	-1.979291e+001	-4.427752e+001
1896000000	-1.936769e+001	-7.909451e+000	-2.897322e-001	5.774721e+001	-2.809204e-001	5.771579e+001	-1.917265e+001	-6.157122e+001
1898000000	-1.932266e+001	-1.789651e+001	-2.815970e-001	4.492702e+001	-2.743844e-001	4.487970e+001	-1.907033e+001	-7.873839e+001
1900000000	-1.959183e+001	-2.636300e+001	-2.685853e-001	3.240626e+001	-2.617446e-001	3.234003e+001	-1.930523e+001	-9.645147e+001
1902000000	-2.019485e+001	-3.355899e+001	-2.532686e-001	2.014521e+001	-2.494927e-001	2.008565e+001	-1.971572e+001	-1.151082e+002
1904000000	-2.098170e+001	-3.910219e+001	-2.389788e-001	8.136388e+000	-2.368458e-001	8.064758e+000	-2.032033e+001	-1.349792e+002
1906000000	-2.188754e+001	-4.175001e+001	-2.259108e-001	-3.662569e+000	-2.260900e-001	-3.726114e+000	-2.091253e+001	-1.561003e+002
1908000000	-2.273748e+001	-4.240029e+001	-2.155627e-001	-1.523747e+001	-2.166543e-001	-1.530475e+001	-2.139301e+001	-1.788454e+002
1910000000	-2.324418e+001	-4.009803e+001	-2.073295e-001	-2.661560e+001	-2.130806e-001	-2.666669e+001	-2.162995e+001	1.583738e+002
1912000000	-2.333065e+001	-3.806856e+001	-2.016930e-001	-3.779121e+001	-2.092207e-001	-3.783695e+001	-2.165587e+001	1.364363e+002
1914000000	-2.303858e+001	-3.696594e+001	-2.003152e-001	-4.878070e+001	-2.059817e-001	-4.880278e+001	-2.147277e+001	1.157099e+002
1916000000	-2.259039e+001	-3.867828e+001	-1.985106e-001	-5.957656e+001	-2.042733e-001	-5.959336e+001	-2.127203e+001	9.737789e+001
1918000000	-2.217353e+001	-4.289913e+001	-1.975173e-001	-7.020709e+001	-2.020848e-001	-7.021127e+001	-2.112308e+001	8.129287e+001
1920000000	-2.192938e+001	-4.914842e+001	-1.943862e-001	-8.069209e+001	-1.982309e-001	-8.067626e+001	-2.112826e+001	6.670871e+001
1922000000	-2.187159e+001	-5.684921e+001	-1.878296e-001	-9.101551e+001	-1.924306e-001	-9.100023e+001	-2.139037e+001	5.397183e+001
1924000000	-2.199662e+001	-6.549868e+001	-1.834231e-001	-1.012214e+002	-1.821769e-001	-1.012033e+002	-2.190111e+001	4.186765e+001
1926000000	-2.255601e+001	-7.564460e+001	-1.751850e-001	-1.113154e+002	-1.736074e-001	-1.113015e+002	-2.272854e+001	3.198017e+001
1928000000	-2.335831e+001	-8.699225e+001	-1.673778e-001	-1.212974e+002	-1.627215e-001	-1.212962e+002	-2.396464e+001	2.290333e+001
1930000000	-2.475161e+001	-1.001925e+002	-1.573880e-001	-1.312068e+002	-1.536331e-001	-1.312070e+002	-2.574803e+001	1.633119e+001
1932000000	-2.615478e+001	-1.162387e+002	-1.503945e-001	-1.410020e+002	-1.474148e-001	-1.410289e+002	-2.799218e+001	1.372799e+001
1934000000	-2.828266e+001	-1.359351e+002	-1.431479e-001	-1.507374e+002	-1.418202e-001	-1.507661e+002	-3.108514e+001	1.937697e+001
1936000000	-3.040424e+001	-1.647952e+002	-1.394907e-001	-1.603922e+002	-1.390842e-001	-1.604282e+002	-3.390806e+001	4.182194e+001
1938000000	-3.137461e+001	1.563120e+002	-1.380562e-001	-1.699628e+002	-1.393531e-001	-1.699945e+002	-3.282556e+001	7.700919e+001
1940000000	-3.011976e+001	1.182857e+002	-1.387802e-001	-1.794511e+002	-1.411058e-001	-1.794802e+002	-2.958771e+001	9.015067e+001
1942000000	-2.808087e+001	9.177714e+001	-1.420504e-001	1.711480e+002	-1.452132e-001	1.711188e+002	-2.671468e+001	9.140319e+001
1944000000	-2.607225e+001	7.156101e+001	-1.448683e-001	1.618073e+002	-1.496941e-001	1.617947e+002	-2.469482e+001	8.796047e+001
1946000000	-2.452067e+001	5.530532e+001	-1.504211e-001	1.525557e+002	-1.530688e-001	1.525544e+002	-2.324116e+001	8.239765e+001
1948000000	-2.334169e+001	4.129016e+001	-1.552178e-001	1.433690e+002	-1.571540e-001	1.433715e+002	-2.207347e+001	7.601395e+001
1950000000	-2.249678e+001	2.913390e+001	-1.587888e-001	1.342354e+002	-1.585478e-001	1.342577e+002	-2.133718e+001	6.888403e+001
1952000000	-2.195826e+001	1.698651e+001	-1.606468e-001	1.251812e+002	-1.597316e-001	1.251824e+002	-2.092479e+001	6.160030e+001
1954000000	-2.171337e+001	5.919763e+000	-1.617502e-001	1.161647e+002	-1.593713e-001	1.161542e+002	-2.074853e+001	5.407306e+001
1956000000	-2.169375e+001	-5.040936e+000	-1.613156e-001	1.071770e+002	-1.585567e-001	1.071719e+002	-2.078746e+001	4.639092e+001
1958000000	-2.190377e+001	-1.586216e+001	-1.574981e-001	9.823129e+001	-1.543593e-001	9.821027e+001	-2.114585e+001	3.844627e+001
1960000000	-2.239522e+001	-2.629541e+001	-1.540503e-001	8.930732e+001	-1.505278e-001	8.927529e+001	-2.168103e+001	3.085060e+001
1962000000	-2.315784e+001	-3.730687e+001	-1.473594e-001	8.039797e+001	-1.478988e-001	8.036628e+001	-2.256350e+001	2.364009e+001
1964000000	-2.426409e+001	-4.800891e+001	-1.414824e-001	7.150042e+001	-1.420509e-001	7.145905e+001	-2.373895e+001	1.662114e+001
1966000000	-2.568491e+001	-5.944436e+001	-1.342885e-001	6.261419e+001	-1.375182e-001	6.256224e+001	-2.548579e+001	9.207573e+000
1968000000	-2.769632e+001	-7.076512e+001	-1.277584e-001	5.372292e+001	-1.329645e-001	5.367934e+001	-2.784861e+001	2.554545e+000
1970000000	-3.033746e+001	-8.530595e+001	-1.227286e-001	4.482726e+001	-1.274467e-001	4.479708e+001	-3.113336e+001	-2.087455e+000
1972000000	-3.478448e+001	-1.009930e+002	-1.194399e-001	3.593219e+001	-1.227710e-001	3.590894e+001	-3.744909e+001	-1.151595e-001
1974000000	-4.203940e+001	-1.451435e+002	-1.166981e-001	2.702947e+001	-1.220736e-001	2.701493e+001	-4.751655e+001	7.921873e+001
1976000000	-4.013465e+001	1.193001e+002	-1.175313e-001	1.813465e+001	-1.199617e-001	1.813707e+001	-3.674010e+001	1.310810e+002
1978000000	-3.439429e+001	8.683409e+001	-1.206626e-001	9.254216e+000	-1.218289e-001	9.236964e+000	-3.126714e+001	1.288841e+002
1980000000	-3.082660e+001	7.154959e+001	-1.255027e-001	3.562421e-001	-1.221579e-001	3.528816e-001	-2.838846e+001	1.234113e+002
1982000000	-2.858711e+001	5.865644e+001	-1.281223e-001	-8.528842e+000	-1.265718e-001	-8.542793e+000	-2.661125e+001	1.167408e+002
1984000000	-2.700885e+001	4.714895e+001	-1.330931e-001	-1.742259e+001	-1.313159e-001	-1.744487e+001	-2.529322e+001	1.096921e+002
1986000000	-2.636029e+001	3.655947e+001	-1.357236e-001	-2.631705e+001	-1.349445e-001	-2.636475e+001	-2.446100e+001	1.028205e+002
1988000000	-2.583850e+001	2.658385e+001	-1.364114e-001	-3.523900e+001	-1.365140e-001	-3.528593e+001	-2.419904e+001	9.486984e+001
1990000000	-2.576548e+001	1.640200e+001	-1.368376e-001	-4.418651e+001	-1.385648e-001	-4.423670e+001	-2.415777e+001	8.852165e+001
1992000000	-2.614614e+001	6.287569e+000	-1.357264e-001	-5.317079e+001	-1.388261e-001	-5.322021e+001	-2.442972e+001	8.144187e+001
1994000000	-2.689249e+001	-4.050852e+000	-1.333860e-001	-6.219644e+001	-1.366551e-001	-6.224023e+001	-2.519457e+001	7.443099e+001
1996000000	-2.818267e+001	-1.365093e+001	-1.293995e-001	-7.127866e+001	-1.347827e-001	-7.132412e+001	-2.637888e+001	6.837960e+001
1998000000	-3.009768e+001	-2.236149e+001	-1.277216e-001	-8.043277e+001	-1.317904e-001	-8.045972e+001	-2.793395e+001	6.290608e+001
2000000000	-3.324475e+001	-3.127790e+001	-1.270612e-001	-8.964379e+001	-1.294812e-001	-8.965571e+001	-3.045120e+001	5.833788e+001
2002000000	-3.841347e+001	-3.637371e+001	-1.270484e-001	-9.891705e+001	-1.292298e-001	-9.894305e+001	-3.435630e+001	6.100951e+001
2004000000	-5.442511e+001	1.583280e+001	-1.302972e-001	-1.082685e+002	-1.298416e-001	-1.082838e+002	-3.984312e+001	8.148301e+001
2006000000	-4.063559e+001	1.001722e+002	-1.345315e-001	-1.176792e+002	-1.338890e-001	-1.177199e+002	-3.954082e+001	1.490780e+002
2008000000	-3.438596e+001	9.618416e+001	-1.394949e-001	-1.271765e+002	-1.369376e-001	-1.272266e+002	-3.414743e+001	1.680537e+002
2010000000	-3.138473e+001	8.891212e+001	-1.444341e-001	-1.367669e+002	-1.425675e-001	-1.368198e+002	-3.084138e+001	1.688680e+002
2012000000	-2.938386e+001	7.749867e+001	-1.489051e-001	-1.464589e+002	-1.495025e-001	-1.465285e+002	-2.863219e+001	1.649397e+002
2014000000	-2.852559e+001	6.688454e+001	-1.500178e-001	-1.562575e+002	-1.530219e-001	-1.563307e+002	-2.740833e+001	1.600229e+002
2016000000	-2.818515e+001	5.596429e+001	-1.520140e-001	-1.662058e+002	-1.551670e-001	-1.662704e+002	-2.667129e+001	1.553580e+002
2018000000	-2.873069e+001	4.272817e+001	-1.518796e-001	-1.762887e+002	-1.585668e-001	-1.763463e+002	-2.676067e+001	1.502158e+002
2020000000	-3.006989e+001	2.991925e+001	-1.522501e-001	1.734364e+002	-1.584623e-001	1.733967e+002	-2.720721e+001	1.463168e+002
2022000000	-3.249742e+001	1.322030e+001	-1.551642e-001	1.629669e+002	-1.600017e-001	1.629543e+002	-2.820149e+001	1.441798e+002
2024000000	-3.742461e+001	-1.332157e+001	-1.593562e-001	1.522909e+002	-1.630264e-001	1.522821e+002	-2.995367e+001	1.470949e+002
2026000000	-4.472756e+001	-8.888456e+001	-1.655201e-001	1.413782e+002	-1.671554e-001	1.413771e+002	-3.235420e+001	1.559570e+002
2028000000	-3.710265e+001	-1.700511e+002	-1.738965e-001	1.302099e+002	-1.740033e-001	1.302111e+002	-3.412775e+001	1.791988e+002
2030000000	-3.183187e+001	1.628712e+002	-1.852027e-001	1.187562e+002	-1.844150e-001	1.187332e+002	-3.396111e+001	-1.527841e+002
2032000000	-2.932260e+001	1.395645e+002	-1.960899e-001	1.069407e+002	-1.975390e-001	1.069166e+002	-3.215565e+001	-1.314645e+002
2034000000	-2.804437e+001	1.145018e+002	-2.107339e-001	9.471223e+001	-2.099283e-001	9.467349e+001	-3.064375e+001	-1.137913e+002
2036000000	-2.785348e+001	7.750130e+001	-2.258981e-001	8.195112e+001	-2.253703e-001	8.192490e+001	-2.883451e+001	-9.180014e+001
2038000000	-2.594269e+001	2.593285e+001	-2.502783e-001	6.852270e+001	-2.507951e-001	6.849794e+001	-2.508861e+001	-6.956315e+001
2040000000	-2.129862e+001	-2.056079e+001	-3.006982e-001	5.421581e+001	-2.993667e-001	5.417893e+001	-2.028025e+001	-5.914755e+001
2042000000	-1.622920e+001	-5.353014e+001	-4.101119e-001	3.880235e+001	-4.091061e-001	3.874457e+001	-1.558421e+001	-5.891529e+001
2044000000	-1.186704e+001	-7.998451e+001	-6.473746e-001	2.208816e+001	-6.473408e-001	2.202312e+001	-1.152700e+001	-6.599783e+001
2046000000	-8.304543e+000	-1.040427e+002	-1.111322e+000	4.116629e+000	-1.115000e+000	4.016384e+000	-8.140749e+000	-7.736373e+001
2048000000	-5.561301e+000	-1.269682e+002	-1.899471e+000	-1.474062e+001	-1.917581e+000	-1.478978e+001	-5.491879e+000	-9.132810e+001
2050000000	-3.553763e+000	-1.487406e+002	-3.089007e+000	-3.353924e+001	-3.119065e+000	-3.351556e+001	-3.543777e+000	-1.062453e+002
2052000000	-2.203688e+000	-1.687922e+002	-4.654606e+000	-5.119864e+001	-4.681992e+000	-5.105723e+001	-2.233351e+000	-1.209455e+002
2054000000	-1.351288e+000	1.734337e+002	-6.486858e+000	-6.712860e+001	-6.506949e+000	-6.687090e+001	-1.392853e+000	-1.343000e+002
2056000000	-8.371502e-001	1.579967e+002	-8.474584e+000	-8.099828e+001	-8.467949e+000	-8.070241e+001	-8.767336e-001	-1.461005e+002
2058000000	-5.334485e-001	1.446871e+002	-1.050616e+001	-9.301433e+001	-1.048693e+001	-9.271748e+001	-5.610382e-001	-1.562856e+002
2060000000	-3.522407e-001	1.331266e+002	-1.253010e+001	-1.033406e+002	-1.248826e+001	-1.031144e+002	-3.691475e-001	-1.651479e+002
2062000000	-2.384265e-001	1.230206e+002	-1.450797e+001	-1.124346e+002	-1.445984e+001	-1.122772e+002	-2.501423e-001	-1.728997e+002
2064000000	-1.724352e-001	1.140672e+002	-1.642944e+001	-1.204564e+002	-1.636882e+001	-1.203567e+002	-1.723190e-001	-1.797312e+002
2066000000	-1.283250e-001	1.060642e+002	-1.827869e+001	-1.276375e+002	-1.821221e+001	-1.276141e+002	-1.185881e-001	1.741888e+002
2068000000	-1.041827e-001	9.881868e+001	-2.006323e+001	-1.341136e+002	-1.999401e+001	-1.341282e+002	-8.738854e-002	1.687058e+002
2070000000	-8.832736e-002	9.220841e+001	-2.178622e+001	-1.399503e+002	-2.171274e+001	-1.400806e+002	-6.278303e-002	1.637073e+002
2072000000	-7.630447e-002	8.614901e+001	-2.343364e+001	-1.454563e+002	-2.336651e+001	-1.455818e+002	-4.702879e-002	1.591126e+002
2074000000	-7.256278e-002	8.053079e+001	-2.503719e+001	-1.503978e+002	-2.497554e+001	-1.505648e+002	-3.424739e-002	1.548759e+002
2076000000	-6.762244e-002	7.527082e+001	-2.658983e+001	-1.550905e+002	-2.651462e+001	-1.553750e+002	-2.619559e-002	1.509592e+002
2078000000	-6.652543e-002	7.035927e+001	-2.808257e+001	-1.594917e+002	-2.801919e+001	-1.597177e+002	-1.861776e-002	1.472621e+002
2080000000	-6.824762e-002	6.575176e+001	-2.953359e+001	-1.635010e+002	-2.948056e+001	-1.638314e+002	-1.285548e-002	1.438219e+002
2082000000	-6.409097e-002	6.136687e+001	-3.094126e+001	-1.674707e+002	-3.087502e+001	-1.677252e+002	-5.015455e-003	1.405579e+002
2084000000	-6.649568e-002	5.720765e+001	-3.229597e+001	-1.710117e+002	-3.225106e+001	-1.713941e+002	-3.992327e-004	1.374782e+002
2086000000	-6.812605e-002	5.325359e+001	-3.363125e+001	-1.744700e+002	-3.358305e+001	-1.749307e+002	-1.235701e-003	1.345599e+002
2088000000	-6.644970e-002	4.948139e+001	-3.493668e+001	-1.778531e+002	-3.488909e+001	-1.781352e+002	-2.746909e-004	1.318072e+002
2090000000	-6.598656e-002	4.587210e+001	-3.620112e+001	1.788011e+002	-3.615644e+001	1.784153e+002	3.202202e-004	1.291343e+002
2092000000	-7.031329e-002	4.240273e+001	-3.746796e+001	1.759866e+002	-3.740322e+001	1.755633e+002	4.614229e-003	1.265999e+002
2094000000	-7.203613e-002	3.905932e+001	-3.865877e+001	1.730725e+002	-3.862224e+001	1.726269e+002	3.522363e-004	1.241334e+002
2096000000	-7.200912e-002	3.584047e+001	-3.987976e+001	1.700796e+002	-3.983334e+001	1.695658e+002	3.296699e-003	1.217799e+002
2098000000	-7.246828e-002	3.272491e+001	-4.102076e+001	1.676374e+002	-4.103844e+001	1.668539e+002	8.596090e-003	1.195135e+002
2100000000	-7.234508e-002	2.969774e+001	-4.223718e+001	1.652469e+002	-4.221626e+001	1.642065e+002	6.864152e-003	1.173457e+002
2102000000	-7.294901e-002	2.678081e+001	-4.341202e+001	1.627131e+002	-4.333971e+001	1.618862e+002	8.442601e-003	1.152133e+002
